Circuit: * C:\Users\rohit\Documents\fd-fnir\sim\current_src_const_i.asc

Instance "m:u4:_nmos1": Length shorter than recommended for a level 1 MOSFET.
Instance "m:u4:_nmos1": Width narrower than recommended for a level 1 MOSFET.
Instance "m:u4:_nmos2": Length shorter than recommended for a level 1 MOSFET.
Instance "m:u4:_nmos2": Width narrower than recommended for a level 1 MOSFET.
Instance "m:u3:_nmos1": Length shorter than recommended for a level 1 MOSFET.
Instance "m:u3:_nmos1": Width narrower than recommended for a level 1 MOSFET.
Instance "m:u3:_nmos2": Length shorter than recommended for a level 1 MOSFET.
Instance "m:u3:_nmos2": Width narrower than recommended for a level 1 MOSFET.
Direct Newton iteration failed to find .op point.  (Use ".option noopiter" to skip.)
Starting Gmin stepping
Gmin = 10
Gmin = 1.07374
Gmin = 0.115292
Gmin = 0.0123794
Gmin = 0.00132923
Gmin = 0.000142725
Gmin = 1.5325e-005
Gmin = 1.6455e-006
Gmin = 1.76685e-007
Gmin = 1.89714e-008
Gmin = 2.03704e-009
Gmin = 2.18725e-010
Gmin = 2.34854e-011
Gmin = 2.52173e-012
Gmin = 2.70769e-013
Gmin = 0
Gmin stepping succeeded in finding the operating point.

Semiconductor Device Operating Points:
                        --- Diodes ---
Name:  d:u4:ilim_source d:u4:ilim_sink d:u3:ilim_source d:u3:ilim_sink d:u4:prot_in_p_vccn
Model:    diode_ilim      diode_ilim      diode_ilim      diode_ilim       diode_vlim
Id:        0.00e+00        0.00e+00        0.00e+00        0.00e+00         -1.05e-12
Vd:        0.00e+00        0.00e+00        0.00e+00        0.00e+00         -1.05e+00
Req:       9.70e+11        9.70e+11        9.70e+11        9.70e+11          1.00e+12
CAP:       0.00e+00        0.00e+00        0.00e+00        0.00e+00          0.00e+00

Name:  d:u4:prot_in_p_vccp d:u4:prot_in_m_vccn d:u4:prot_in_m_vccp d:u3:prot_in_p_vccn d:u3:prot_in_p_vccp
Model:     diode_vlim          diode_vlim          diode_vlim          diode_vlim          diode_vlim
Id:         -1.95e-12           -1.05e-12           -1.95e-12           -6.02e-13           -2.40e-12
Vd:         -1.95e+00           -1.05e+00           -1.95e+00           -6.01e-01           -2.40e+00
Req:         1.00e+12            1.00e+12            1.00e+12            1.00e+12            1.00e+12
CAP:         0.00e+00            0.00e+00            0.00e+00            0.00e+00            0.00e+00

Name:  d:u3:prot_in_m_vccn d:u3:prot_in_m_vccp d:u4:vlim_low_vb d:u4:vlim_high_vb d:u4:_outvlim_low
Model:     diode_vlim          diode_vlim         diode_novd       diode_novd        diode_novd
Id:         -6.01e-13           -2.40e-12         -1.66e-12         -1.66e-12         -1.17e-12
Vd:         -6.01e-01           -2.40e+00         -1.65e+00         -1.65e+00         -1.16e+00
Req:         1.00e+12            1.00e+12          1.00e+12          1.00e+12          1.00e+12
CAP:         0.00e+00            0.00e+00          0.00e+00          0.00e+00          0.00e+00

Name:  d:u4:_outvlim_high d:u3:vlim_low_vb d:u3:vlim_high_vb d:u3:_outvlim_low d:u3:_outvlim_high
Model:     diode_novd        diode_novd       diode_novd        diode_novd         diode_novd
Id:        -2.08e-12         -1.20e-12         -2.11e-12         -1.99e-12         -1.27e-12
Vd:        -2.07e+00         -1.19e+00         -2.10e+00         -1.98e+00         -1.26e+00
Req:        1.00e+12          1.00e+12          1.00e+12          1.00e+12          1.00e+12
CAP:        0.00e+00          0.00e+00          0.00e+00          0.00e+00          0.00e+00

                        --- MOSFET Transistors ---
Name:      m:u4:_nmos1 m:u4:_nmos2 m:u3:_nmos1 m:u3:_nmos2
Model:        mos_n       mos_n       mos_n       mos_n
Id:          1.50e-06    1.50e-06    1.50e-06    1.50e-06
Vgs:         7.03e-01    7.03e-01    7.04e-01    7.03e-01
Vds:         2.95e+00    2.95e+00    3.40e+00    3.40e+00
Vbs:        -1.60e+00   -1.60e+00   -1.15e+00   -1.15e+00
Vth:         6.50e-01    6.50e-01    6.50e-01    6.50e-01
Vdsat:       5.35e-02    5.35e-02    5.35e-02    5.34e-02
Gm:          5.61e-05    5.61e-05    5.62e-05    5.61e-05
Gds:         0.00e+00    0.00e+00    0.00e+00    0.00e+00
Gmb:         0.00e+00    0.00e+00    0.00e+00    0.00e+00
Cbd:         0.00e+00    0.00e+00    0.00e+00    0.00e+00
Cbs:         0.00e+00    0.00e+00    0.00e+00    0.00e+00
Cgsov:       0.00e+00    0.00e+00    0.00e+00    0.00e+00
Cgdov:       0.00e+00    0.00e+00    0.00e+00    0.00e+00
Cgbov:       0.00e+00    0.00e+00    0.00e+00    0.00e+00
Cgs:         0.00e+00    0.00e+00    0.00e+00    0.00e+00
Cgd:         0.00e+00    0.00e+00    0.00e+00    0.00e+00
Cgb:         0.00e+00    0.00e+00    0.00e+00    0.00e+00



Date: Tue Feb 22 11:29:59 2022
Total elapsed time: 1.553 seconds.

tnom = 27
temp = 27
method = trap
totiter = 2040
traniter = 0
tranpoints = 0
accept = 0
rejected = 0
matrix size = 181
fillins = 382
solver = Normal
Thread vector: 11.5/5.6[4] 0.0/0.0[0] 3.9/1.6[4] 0.4/0.6[1]  2592/500
Matrix Compiler1: 26.57 KB object code size
Matrix Compiler2: off  [1.0]/2.0/1.1

