Circuit: * C:\Users\rohit\Documents\fd-fnir\sim\current_src_dac.asc

Instance "m:u4:_nmos1": Length shorter than recommended for a level 1 MOSFET.
Instance "m:u4:_nmos1": Width narrower than recommended for a level 1 MOSFET.
Instance "m:u4:_nmos2": Length shorter than recommended for a level 1 MOSFET.
Instance "m:u4:_nmos2": Width narrower than recommended for a level 1 MOSFET.
Instance "m:u3:_nmos1": Length shorter than recommended for a level 1 MOSFET.
Instance "m:u3:_nmos1": Width narrower than recommended for a level 1 MOSFET.
Instance "m:u3:_nmos2": Length shorter than recommended for a level 1 MOSFET.
Instance "m:u3:_nmos2": Width narrower than recommended for a level 1 MOSFET.
Direct Newton iteration failed to find .op point.  (Use ".option noopiter" to skip.)
Starting Gmin stepping
Gmin = 10
Gmin = 1.07374
vernier = 0.5
vernier = 0.25
vernier = 0.125
vernier = 0.0625
vernier = 0.03125
vernier = 0.015625
Gmin = 1.18378
vernier = 0.0208333
vernier = 0.0277778
Gmin = 1.12629
vernier = 0.037037
vernier = 0.0185185
vernier = 0.00925925
Gmin = 1.078
vernier = 0.00462963
vernier = 0.00231481
vernier = 0.00115741
Gmin = 1.07427
vernier = 0.000578703
vernier = 0.000434027
Gmin = 0
Gmin stepping failed

Starting source stepping with srcstepmethod=0
Source Step = 3.0303%
Source Step = 33.3333%
Source Step = 63.6364%
Source Step = 93.9394%
Source stepping succeeded in finding the operating point.

Semiconductor Device Operating Points:
                        --- Diodes ---
Name:  d:u4:ilim_source d:u4:ilim_sink d:u3:ilim_source d:u3:ilim_sink d:u4:prot_in_p_vccn
Model:    diode_ilim      diode_ilim      diode_ilim      diode_ilim       diode_vlim
Id:        0.00e+00        0.00e+00        0.00e+00        0.00e+00         -3.13e-12
Vd:        0.00e+00        0.00e+00        0.00e+00        0.00e+00         -3.13e+00
Req:       9.70e+11        9.70e+11        9.70e+11        9.70e+11          1.00e+12
CAP:       0.00e+00        0.00e+00        0.00e+00        0.00e+00          0.00e+00

Name:  d:u4:prot_in_p_vccp d:u4:prot_in_m_vccn d:u4:prot_in_m_vccp d:u3:prot_in_p_vccn d:u3:prot_in_p_vccp
Model:     diode_vlim          diode_vlim          diode_vlim          diode_vlim          diode_vlim
Id:          2.29e-13           -3.12e-12            2.10e-13           -1.49e-12           -1.51e-12
Vd:          1.26e-01           -3.12e+00            1.22e-01           -1.49e+00           -1.51e+00
Req:         2.00e+11            1.00e+12            2.26e+11            1.00e+12            1.00e+12
CAP:         0.00e+00            0.00e+00            0.00e+00            0.00e+00            0.00e+00

Name:  d:u3:prot_in_m_vccn d:u3:prot_in_m_vccp d:u4:vlim_low_vb d:u4:vlim_high_vb d:u4:_outvlim_low
Model:     diode_vlim          diode_vlim         diode_novd       diode_novd        diode_novd
Id:         -1.49e-12           -1.51e-12          1.98e-07         -3.31e-12         -3.25e-12
Vd:         -1.49e+00           -1.51e+00          4.35e-04         -3.30e+00         -3.24e+00
Req:         1.00e+12            1.00e+12          1.31e+02          1.00e+12          1.00e+12
CAP:         0.00e+00            0.00e+00          0.00e+00          0.00e+00          0.00e+00

Name:  d:u4:_outvlim_high d:u3:vlim_low_vb d:u3:vlim_high_vb d:u3:_outvlim_low d:u3:_outvlim_high
Model:     diode_novd        diode_novd       diode_novd        diode_novd         diode_novd
Id:         3.33e-02         -1.70e-12         -1.61e-12         -3.24e-12         -1.36e-14
Vd:         7.46e-04         -1.69e+00         -1.60e+00         -3.23e+00         -3.64e-03
Req:        7.77e-04          1.00e+12          1.00e+12          1.00e+12          1.00e+12
CAP:        0.00e+00          0.00e+00          0.00e+00          0.00e+00          0.00e+00

                        --- MOSFET Transistors ---
Name:      m:u4:_nmos1 m:u4:_nmos2 m:u3:_nmos1 m:u3:_nmos2
Model:        mos_n       mos_n       mos_n       mos_n
Id:          1.61e-06    1.39e-06    1.50e-06    1.50e-06
Vgs:         7.05e-01    7.01e-01    7.03e-01    7.03e-01
Vds:         8.78e-01    8.78e-01    2.51e+00    2.51e+00
Vbs:        -3.67e+00   -3.67e+00   -2.03e+00   -2.03e+00
Vth:         6.50e-01    6.50e-01    6.50e-01    6.50e-01
Vdsat:       5.54e-02    5.14e-02    5.34e-02    5.35e-02
Gm:          5.82e-05    5.40e-05    5.61e-05    5.61e-05
Gds:         0.00e+00    0.00e+00    0.00e+00    0.00e+00
Gmb:         0.00e+00    0.00e+00    0.00e+00    0.00e+00
Cbd:         0.00e+00    0.00e+00    0.00e+00    0.00e+00
Cbs:         0.00e+00    0.00e+00    0.00e+00    0.00e+00
Cgsov:       0.00e+00    0.00e+00    0.00e+00    0.00e+00
Cgdov:       0.00e+00    0.00e+00    0.00e+00    0.00e+00
Cgbov:       0.00e+00    0.00e+00    0.00e+00    0.00e+00
Cgs:         0.00e+00    0.00e+00    0.00e+00    0.00e+00
Cgd:         0.00e+00    0.00e+00    0.00e+00    0.00e+00
Cgb:         0.00e+00    0.00e+00    0.00e+00    0.00e+00



Date: Wed Feb 23 23:13:36 2022
Total elapsed time: 2.987 seconds.

tnom = 27
temp = 27
method = trap
totiter = 3920
traniter = 0
tranpoints = 0
accept = 0
rejected = 0
matrix size = 181
fillins = 418
solver = Normal
Thread vector: 15.8/8.9[4] 0.0/0.0[0] 7.5/5.9[4] 0.5/1.0[1]  2592/500
Matrix Compiler1: 30.73 KB object code size
Matrix Compiler2: 19.95 KB object code size  1.9/3.2/[1.3]

