Circuit: * C:\Users\rohit\Documents\fd-fnir\sim\Draft2.asc

Instance "m:u2:_nmos1": Length shorter than recommended for a level 1 MOSFET.
Instance "m:u2:_nmos1": Width narrower than recommended for a level 1 MOSFET.
Instance "m:u2:_nmos2": Length shorter than recommended for a level 1 MOSFET.
Instance "m:u2:_nmos2": Width narrower than recommended for a level 1 MOSFET.
Instance "m:u1:_nmos1": Length shorter than recommended for a level 1 MOSFET.
Instance "m:u1:_nmos1": Width narrower than recommended for a level 1 MOSFET.
Instance "m:u1:_nmos2": Length shorter than recommended for a level 1 MOSFET.
Instance "m:u1:_nmos2": Width narrower than recommended for a level 1 MOSFET.
Direct Newton iteration failed to find .op point.  (Use ".option noopiter" to skip.)
Starting Gmin stepping
Gmin = 10
Gmin = 1.07374
Gmin = 0.115292
Gmin = 0.0123794
Gmin = 0.00132923
Gmin = 0.000142725
Gmin = 1.5325e-005
Gmin = 1.6455e-006
Gmin = 1.76685e-007
Gmin = 1.89714e-008
Gmin = 2.03704e-009
Gmin = 2.18725e-010
Gmin = 2.34854e-011
Gmin = 2.52173e-012
Gmin = 2.70769e-013
Gmin = 0
Gmin stepping succeeded in finding the operating point.

Semiconductor Device Operating Points:
                        --- Diodes ---
Name:      d1      d:u2:ilim_source d:u2:ilim_sink d:u1:ilim_source d:u1:ilim_sink
Model:      d         diode_ilim      diode_ilim      diode_ilim      diode_ilim
Id:     -1.71e-12      0.00e+00        0.00e+00        0.00e+00        0.00e+00
Vd:     -1.70e+00      0.00e+00        0.00e+00        0.00e+00        0.00e+00
Req:     1.00e+12      9.70e+11        9.70e+11        9.70e+11        9.70e+11
CAP:     0.00e+00      0.00e+00        0.00e+00        0.00e+00        0.00e+00

Name:  d:u2:prot_in_p_vccn d:u2:prot_in_p_vccp d:u2:prot_in_m_vccn d:u2:prot_in_m_vccp d:u1:prot_in_p_vccn
Model:     diode_vlim          diode_vlim          diode_vlim          diode_vlim          diode_vlim
Id:         -1.44e-12           -1.56e-12           -1.44e-12           -1.56e-12           -1.45e-12
Vd:         -1.44e+00           -1.56e+00           -1.44e+00           -1.56e+00           -1.45e+00
Req:         1.00e+12            1.00e+12            1.00e+12            1.00e+12            1.00e+12
CAP:         0.00e+00            0.00e+00            0.00e+00            0.00e+00            0.00e+00

Name:  d:u1:prot_in_p_vccp d:u1:prot_in_m_vccn d:u1:prot_in_m_vccp d:u2:vlim_low_vb d:u2:vlim_high_vb
Model:     diode_vlim          diode_vlim          diode_vlim         diode_novd       diode_novd
Id:         -1.55e-12           -1.45e-12           -1.55e-12         -1.66e-12         -1.66e-12
Vd:         -1.55e+00           -1.45e+00           -1.55e+00         -1.65e+00         -1.65e+00
Req:         1.00e+12            1.00e+12            1.00e+12          1.00e+12          1.00e+12
CAP:         0.00e+00            0.00e+00            0.00e+00          0.00e+00          0.00e+00

Name:  d:u2:_outvlim_low d:u2:_outvlim_high d:u1:vlim_low_vb d:u1:vlim_high_vb d:u1:_outvlim_low
Model:    diode_novd         diode_novd        diode_novd       diode_novd        diode_novd
Id:        -1.56e-12         -1.69e-12         -1.66e-12         -1.66e-12         -1.57e-12
Vd:        -1.55e+00         -1.68e+00         -1.65e+00         -1.65e+00         -1.56e+00
Req:        1.00e+12          1.00e+12          1.00e+12          1.00e+12          1.00e+12
CAP:        0.00e+00          0.00e+00          0.00e+00          0.00e+00          0.00e+00

Name:  d:u1:_outvlim_high
Model:     diode_novd
Id:        -1.69e-12
Vd:        -1.68e+00
Req:        1.00e+12
CAP:        0.00e+00

                        --- MOSFET Transistors ---
Name:      m:u2:_nmos1 m:u2:_nmos2 m:u1:_nmos1 m:u1:_nmos2
Model:        mos_n       mos_n       mos_n       mos_n
Id:          1.50e-06    1.50e-06    1.50e-06    1.50e-06
Vgs:         7.03e-01    7.03e-01    7.03e-01    7.03e-01
Vds:         2.56e+00    2.56e+00    2.55e+00    2.55e+00
Vbs:        -1.99e+00   -1.99e+00   -2.00e+00   -2.00e+00
Vth:         6.50e-01    6.50e-01    6.50e-01    6.50e-01
Vdsat:       5.35e-02    5.35e-02    5.35e-02    5.35e-02
Gm:          5.61e-05    5.61e-05    5.61e-05    5.61e-05
Gds:         0.00e+00    0.00e+00    0.00e+00    0.00e+00
Gmb:         0.00e+00    0.00e+00    0.00e+00    0.00e+00
Cbd:         0.00e+00    0.00e+00    0.00e+00    0.00e+00
Cbs:         0.00e+00    0.00e+00    0.00e+00    0.00e+00
Cgsov:       0.00e+00    0.00e+00    0.00e+00    0.00e+00
Cgdov:       0.00e+00    0.00e+00    0.00e+00    0.00e+00
Cgbov:       0.00e+00    0.00e+00    0.00e+00    0.00e+00
Cgs:         0.00e+00    0.00e+00    0.00e+00    0.00e+00
Cgd:         0.00e+00    0.00e+00    0.00e+00    0.00e+00
Cgb:         0.00e+00    0.00e+00    0.00e+00    0.00e+00



Date: Thu Feb 24 00:06:35 2022
Total elapsed time: 0.870 seconds.

tnom = 27
temp = 27
method = trap
totiter = 477
traniter = 0
tranpoints = 0
accept = 0
rejected = 0
matrix size = 181
fillins = 137
solver = Normal
Thread vector: 15.3/11.0[3] 0.0/0.0[0] 6.0/2.6[3] 0.4/0.7[1]  2592/500
Matrix Compiler1: 12.34 KB object code size
Matrix Compiler2: 14.88 KB object code size  1.6/3.0/[1.3]

